
T3EB4 000:002 SEGGER J-Link V6.16c Log File (0000ms, 0001ms total)
T3EB4 000:002 DLL Compiled: Jun 16 2017 18:14:49 (0000ms, 0001ms total)
T3EB4 000:002 Logging started @ 2018-09-29 20:28 (0000ms, 0001ms total)
T3EB4 000:002 JLINK_SetWarnOutHandler(...) (0000ms, 0001ms total)
T3EB4 000:002 JLINK_OpenEx(...)
Firmware: J-Link OpenSDA 2 compiled Aug  4 2014 13:30:09
Hardware: V1.00
S/N: 621000000WEBSRV Webserver running on local port 19080 (0012ms, 0013ms total)
T3EB4 000:002   returns O.K. (0012ms, 0013ms total)
T3EB4 000:014 JLINK_GetEmuCaps()  returns 0xB86A5A33 (0000ms, 0013ms total)
T3EB4 000:014 JLINK_TIF_GetAvailable(...) (0001ms, 0014ms total)
T3EB4 000:015 JLINK_SetErrorOutHandler(...) (0000ms, 0014ms total)
T3EB4 000:015 JLINK_ExecCommand("ProjectFile = "C:\Users\benjamin.gerber\Documents\git\dsp\hw3\K22_Project_Framework\JLinkSettings.ini"", ...).   returns 0x00 (0101ms, 0115ms total)
T3EB4 000:116 JLINK_ExecCommand("Device = MK22FN512VLH12", ...). Device "MK22FN512XXX12" selected.  returns 0x00 (0002ms, 0117ms total)
T3EB4 000:118 JLINK_ExecCommand("DisableConnectionTimeout", ...).   returns 0x01 (0000ms, 0117ms total)
T3EB4 000:118 JLINK_GetHardwareVersion()  returns 0x2710 (0000ms, 0117ms total)
T3EB4 000:118 JLINK_GetDLLVersion()  returns 61603 (0000ms, 0117ms total)
T3EB4 000:118 JLINK_GetFirmwareString(...) (0000ms, 0117ms total)
T3EB4 000:118 JLINK_GetDLLVersion()  returns 61603 (0000ms, 0117ms total)
T3EB4 000:118 JLINK_GetCompileDateTime() (0000ms, 0117ms total)
T3EB4 000:118 JLINK_GetFirmwareString(...) (0001ms, 0118ms total)
T3EB4 000:119 JLINK_GetHardwareVersion()  returns 0x2710 (0000ms, 0118ms total)
T3EB4 000:119 JLINK_TIF_Select(JLINKARM_TIF_SWD)  returns 0x00 (0002ms, 0120ms total)
T3EB4 000:121 JLINK_SetSpeed(5000) (0000ms, 0120ms total)
T3EB4 000:121 JLINK_GetId()Executing InitTarget() >0x10B TIF> >0x0D TIF> >0x28 TIF> >0x0D TIF> >0x28 TIF> >0x0D TIF> >0x28 TIF> >0x0D TIF> >0x28 TIF> >0x0D TIF> >0x21 TIF> >0x0D TIF> >0x21 TIF> >0x0D TIF> >0x28 TIF> >0x0D TIF> >0x21 TIF> >0x0D TIF> >0x21 TIF> >0x0D TIF> >0x21 TIF> >0x0D TIF> >0x21 TIF> >0x0D TIF> >0x21 TIF> >0x0D TIF> >0x21 TIF> >0x0D TIF> >0x21 TIF> >0x0D TIF> >0x21 TIF> >0x0D TIF> >0x21 TIF> >0x0D TIF> >0x21 TIF> >0x0D TIF> >0x21 TIF> >0x0D TIF> >0x21 TIF> >0x0D TIF> >0x21 TIF>
 >0x0D TIF> >0x21 TIF> >0x0D TIF> >0x21 TIF> >0x0D TIF> >0x21 TIF> >0x0D TIF> >0x21 TIF> >0x0D TIF> >0x21 TIF> >0x0D TIF> >0x21 TIF> >0x0D TIF> >0x21 TIF> >0x0D TIF> >0x21 TIF> >0x0D TIF> >0x21 TIF> >0x0D TIF> >0x21 TIF> >0x0D TIF> >0x21 TIF> >0x0D TIF> >0x21 TIF> >0x0D TIF> >0x21 TIF> >0x0D TIF> >0x21 TIF> >0x0D TIF> >0x21 TIF> >0x0D TIF> >0x21 TIF> >0x0D TIF> >0x21 TIF> >0x0D TIF> >0x21 TIF> >0x0D TIF> >0x21 TIF> >0x0D TIF> >0x21 TIF> >0x0D TIF> >0x21 TIF> >0x0D TIF> >0x21 TIF> >0x0D TIF> >0x21 TIF>
 >0x0D TIF> >0x21 TIF> >0x0D TIF> >0x21 TIF> >0x0D TIF> >0x21 TIF> >0x0D TIF> >0x21 TIF> >0x0D TIF> >0x21 TIF> >0x0D TIF> >0x21 TIF> >0x0D TIF> >0x21 TIF> >0x0D TIF> >0x21 TIF> >0x0D TIF> >0x21 TIF> >0x0D TIF> >0x21 TIF> >0x0D TIF> >0x21 TIF> >0x0D TIF> >0x21 TIF> >0x0D TIF> >0x21 TIF> >0x0D TIF> >0x21 TIF> >0x0D TIF> >0x21 TIF> >0x0D TIF> >0x21 TIF> >0x0D TIF> >0x21 TIF> >0x0D TIF> >0x21 TIF> >0x0D TIF> >0x21 TIF> >0x0D TIF> >0x21 TIF> >0x0D TIF> >0x28 TIF> >0x0D TIF> >0x28 TIF> >0x0D TIF> >0x28 TIF>
 >0x0D TIF> >0x21 TIF> >0x0D TIF> >0x21 TIF> >0x10B TIF>Found SW-DP with ID 0x2BA01477 >0x0D TIF> >0x28 TIF> >0x0D TIF> >0x28 TIF> >0x0D TIF> >0x28 TIF> >0x0D TIF> >0x28 TIF> >0x0D TIF> >0x21 TIF> >0x0D TIF> >0x28 TIF>Scanning APs, stopping at first AHB-AP found. >0x0D TIF> >0x28 TIF> >0x0D TIF> >0x21 TIF> >0x0D TIF> >0x21 TIF>AP[0] IDR: 0x24770011 (AHB-AP) >0x0D TIF> >0x28 TIF> >0x0D TIF> >0x21 TIF> >0x0D TIF> >0x21 TIF>AHB-AP ROM: 0xE00FF000 (Base addr. of first ROM table) >0x0D TIF> >0x28 TIF>
 >0x0D TIF> >0x28 TIF> >0x0D TIF> >0x28 TIF> >0x0D TIF> >0x21 TIF> >0x0D TIF> >0x21 TIF> >0x0D TIF> >0x28 TIF> >0x0D TIF> >0x21 TIF> >0x0D TIF> >0x21 TIF>CPUID reg: 0x410FC241. Implementer code: 0x41 (ARM)Found Cortex-M4 r0p1, Little endian. -- CPU_ReadMem(4 bytes @ 0xE000EDF0) -- CPU_WriteMem(4 bytes @ 0xE000EDF0) -- CPU_ReadMem(4 bytes @ 0xE0002000)FPUnit: 6 code (BP) slots and 2 literal slots -- CPU_ReadMem(4 bytes @ 0xE000EDFC) -- CPU_WriteMem(4 bytes @ 0xE000EDFC)
 -- CPU_ReadMem(4 bytes @ 0xE0001000) -- CPU_WriteMem(4 bytes @ 0xE0001000) -- CPU_ReadMem(4 bytes @ 0xE000ED88) -- CPU_WriteMem(4 bytes @ 0xE000ED88) -- CPU_ReadMem(4 bytes @ 0xE000ED88) -- CPU_WriteMem(4 bytes @ 0xE000ED88)CoreSight components:ROMTbl[0] @ E00FF000 -- CPU_ReadMem(16 bytes @ 0xE00FF000) -- CPU_ReadMem(16 bytes @ 0xE000EFF0) -- CPU_ReadMem(16 bytes @ 0xE000EFE0)ROMTbl[0][0]: E000E000, CID: B105E00D, PID: 000BB00C SCS -- CPU_ReadMem(16 bytes @ 0xE0001FF0)
 -- CPU_ReadMem(16 bytes @ 0xE0001FE0)ROMTbl[0][1]: E0001000, CID: B105E00D, PID: 003BB002 DWT -- CPU_ReadMem(16 bytes @ 0xE0002FF0) -- CPU_ReadMem(16 bytes @ 0xE0002FE0)ROMTbl[0][2]: E0002000, CID: B105E00D, PID: 002BB003 FPB -- CPU_ReadMem(16 bytes @ 0xE0000FF0) -- CPU_ReadMem(16 bytes @ 0xE0000FE0)ROMTbl[0][3]: E0000000, CID: B105E00D, PID: 003BB001 ITM -- CPU_ReadMem(16 bytes @ 0xE00FF010) -- CPU_ReadMem(16 bytes @ 0xE0040FF0) -- CPU_ReadMem(16 bytes @ 0xE0040FE0)
ROMTbl[0][4]: E0040000, CID: B105900D, PID: 000BB9A1 TPIU -- CPU_ReadMem(16 bytes @ 0xE00FF020) >0x0D TIF> >0x21 TIF>  returns 0x2BA01477 (0116ms, 0236ms total)
T3EB4 000:237 JLINK_GetDLLVersion()  returns 61603 (0001ms, 0237ms total)
T3EB4 000:238 JLINK_CORE_GetFound()  returns 0xE0000FF (0000ms, 0237ms total)
T3EB4 000:238 JLINK_GetDebugInfo(0x100 = JLINKARM_ROM_TABLE_ADDR_INDEX) -- Value=0xE00FF000  returns 0x00 (0000ms, 0237ms total)
T3EB4 000:238 JLINK_GetDebugInfo(0x100 = JLINKARM_ROM_TABLE_ADDR_INDEX) -- Value=0xE00FF000  returns 0x00 (0000ms, 0237ms total)
T3EB4 000:238 JLINK_GetDebugInfo(0x101 = JLINKARM_DEBUG_INFO_ETM_ADDR_INDEX) -- Value=0xE0041000  returns 0x00 (0000ms, 0237ms total)
T3EB4 000:238 JLINK_ReadMemEx(0xE0041FD0, 0x0020 Bytes, ..., Flags = 0x02000004) -- CPU_ReadMem(32 bytes @ 0xE0041FD0) - Data: 00 00 00 00 00 00 00 00 00 00 00 00 00 00 00 00 ...  returns 0x20 (0001ms, 0238ms total)
T3EB4 000:239 JLINK_GetDebugInfo(0x102 = JLINKARM_DEBUG_INFO_MTB_ADDR_INDEX) -- Value=0x00000000  returns 0x00 (0000ms, 0238ms total)
T3EB4 000:239 JLINK_GetDebugInfo(0x103 = JLINKARM_DEBUG_INFO_TPIU_ADDR_INDEX) -- Value=0xE0040000  returns 0x00 (0000ms, 0238ms total)
T3EB4 000:239 JLINK_GetDebugInfo(0x104 = JLINKARM_DEBUG_INFO_ITM_ADDR_INDEX) -- Value=0xE0000000  returns 0x00 (0000ms, 0238ms total)
T3EB4 000:239 JLINK_GetDebugInfo(0x105 = JLINKARM_DEBUG_INFO_DWT_ADDR_INDEX) -- Value=0xE0001000  returns 0x00 (0000ms, 0238ms total)
T3EB4 000:239 JLINK_GetDebugInfo(0x106 = JLINKARM_DEBUG_INFO_FPB_ADDR_INDEX) -- Value=0xE0002000  returns 0x00 (0000ms, 0238ms total)
T3EB4 000:239 JLINK_GetDebugInfo(0x107 = JLINKARM_DEBUG_INFO_NVIC_ADDR_INDEX) -- Value=0xE000E000  returns 0x00 (0000ms, 0238ms total)
T3EB4 000:239 JLINK_GetDebugInfo(0x10C = JLINKARM_DEBUG_INFO_DBG_ADDR_INDEX) -- Value=0xE000EDF0  returns 0x00 (0000ms, 0238ms total)
T3EB4 000:239 JLINK_ReadMemU32(0xE000EF40, 0x0001 Items, ...) -- CPU_ReadMem(4 bytes @ 0xE000EF40) - Data: 21 00 11 10  returns 0x01 (0001ms, 0239ms total)
T3EB4 000:240 JLINK_ReadMemU32(0xE000EF44, 0x0001 Items, ...) -- CPU_ReadMem(4 bytes @ 0xE000EF44) - Data: 11 00 00 11  returns 0x01 (0001ms, 0240ms total)
T3EB4 000:241 JLINK_ReadMemU32(0xE000ED00, 0x0001 Items, ...) -- CPU_ReadMem(4 bytes @ 0xE000ED00) - Data: 41 C2 0F 41  returns 0x01 (0001ms, 0241ms total)
T3EB4 000:242 JLINK_GetDebugInfo(0x10F = JLINKARM_DEBUG_INFO_HAS_CORTEX_M_SECURITY_EXT_INDEX) -- Value=0x00000000  returns 0x00 (0000ms, 0241ms total)
T3EB4 000:242 JLINK_SetResetType(JLINKARM_CM3_RESET_TYPE_NORMAL)  returns JLINKARM_CM3_RESET_TYPE_NORMAL (0000ms, 0241ms total)
T3EB4 000:242 JLINK_Reset() -- CPU is running -- CPU_WriteMem(4 bytes @ 0xE000EDF0) -- CPU is running -- CPU_WriteMem(4 bytes @ 0xE000EDFC) >0x35 TIF>Setting AIRCR.SYSRESETREQ -- CPU is running -- CPU_WriteMem(4 bytes @ 0xE000ED0C) >0x0D TIF> >0x28 TIF> -- CPU_ReadMem(4 bytes @ 0xE000ED0C) -- CPU_ReadMem(4 bytes @ 0xE000EDF0) -- CPU_ReadMem(4 bytes @ 0xE000EDF0) -- CPU_ReadMem(4 bytes @ 0xE000EDF0) -- CPU is running -- CPU_WriteMem(4 bytes @ 0xE000EDF0) -- CPU is running
 -- CPU_WriteMem(4 bytes @ 0xE000EDFC) -- CPU_ReadMem(4 bytes @ 0xE000EDF0)Executing AfterResetTarget() >0x0D TIF> >0x28 TIF> >0x0D TIF> >0x28 TIF> >0x0D TIF> >0x28 TIF> >0x0D TIF> >0x28 TIF> >0x0D TIF> >0x28 TIF> >0x0D TIF> >0x21 TIF> >0x0D TIF> >0x21 TIF> >0x0D TIF> >0x28 TIF> >0x0D TIF> >0x28 TIF> >0x0D TIF> >0x21 TIF> >0x0D TIF> >0x21 TIF> >0x0D TIF> >0x28 TIF> >0x0D TIF> >0x28 TIF> >0x0D TIF> >0x28 TIF> >0x0D TIF> >0x28 TIF> >0x0D TIF> >0x28 TIF> >0x0D TIF> >0x28 TIF> >0x0D TIF> >0x21 TIF>
 >0x0D TIF> >0x21 TIF> >0x0D TIF> >0x21 TIF> >0x0D TIF> >0x28 TIF> >0x0D TIF> >0x28 TIF> >0x0D TIF> >0x28 TIF> >0x0D TIF> >0x21 TIF> >0x0D TIF> >0x21 TIF> >0x0D TIF> >0x21 TIF> >0x0D TIF> >0x28 TIF> >0x0D TIF> >0x28 TIF> >0x0D TIF> >0x28 TIF> >0x0D TIF> >0x21 TIF> >0x0D TIF> >0x21 TIF> >0x0D TIF> >0x21 TIF> >0x0D TIF> >0x28 TIF> >0x0D TIF> >0x28 TIF> >0x0D TIF> >0x28 TIF> >0x0D TIF> >0x21 TIF> >0x0D TIF> >0x21 TIF> >0x0D TIF> >0x21 TIF> >0x0D TIF> >0x28 TIF> >0x0D TIF> >0x28 TIF> >0x0D TIF> >0x28 TIF>
 >0x0D TIF> >0x21 TIF> >0x0D TIF> >0x21 TIF> >0x0D TIF> >0x21 TIF> >0x0D TIF> >0x28 TIF> >0x0D TIF> >0x28 TIF> >0x0D TIF> >0x28 TIF> >0x0D TIF> >0x28 TIF> >0x0D TIF> >0x28 TIF> >0x0D TIF> >0x28 TIF> >0x0D TIF> >0x28 TIF> >0x0D TIF> >0x28 TIF> >0x0D TIF> >0x28 TIF> >0x0D TIF> >0x28 TIF> >0x0D TIF> >0x28 TIF> >0x0D TIF> >0x28 TIF> >0x0D TIF> >0x28 TIF> >0x0D TIF> >0x28 TIF> >0x0D TIF> >0x28 TIF> >0x0D TIF> >0x28 TIF> >0x0D TIF> >0x28 TIF> >0x0D TIF> >0x28 TIF> >0x0D TIF> >0x28 TIF> >0x0D TIF> >0x28 TIF>
 >0x0D TIF> >0x28 TIF> >0x0D TIF> >0x28 TIF> >0x0D TIF> >0x21 TIF> >0x0D TIF> >0x21 TIF> >0x0D TIF> >0x28 TIF> >0x0D TIF> >0x21 TIF> >0x0D TIF> >0x21 TIF> >0x0D TIF> >0x28 TIF> >0x0D TIF> >0x28 TIF> >0x0D TIF> >0x28 TIF> >0x0D TIF> >0x28 TIF> >0x0D TIF> >0x28 TIF> >0x0D TIF> >0x28 TIF> >0x0D TIF> >0x28 TIF> >0x0D TIF> >0x28 TIF> >0x0D TIF> >0x21 TIF> >0x0D TIF> >0x21 TIF> >0x0D TIF> >0x28 TIF> >0x0D TIF> >0x28 TIF> >0x0D TIF> >0x28 TIF> >0x0D TIF> >0x28 TIF> >0x0D TIF> >0x28 TIF> >0x0D TIF> >0x28 TIF>
 >0x0D TIF> >0x28 TIF> >0x0D TIF> >0x28 TIF> >0x0D TIF> >0x28 TIF> >0x0D TIF> >0x28 TIF> >0x0D TIF> >0x28 TIF> >0x0D TIF> >0x28 TIF> >0x0D TIF> >0x28 TIF> >0x0D TIF> >0x28 TIF> >0x0D TIF> >0x28 TIF> >0x0D TIF> >0x28 TIF> >0x0D TIF> >0x28 TIF> >0x0D TIF> >0x28 TIF> >0x0D TIF> >0x28 TIF> >0x0D TIF> >0x28 TIF> >0x0D TIF> >0x28 TIF> >0x0D TIF> >0x28 TIF> >0x0D TIF> >0x28 TIF> >0x0D TIF> >0x28 TIF> >0x0D TIF> >0x28 TIF> -- CPU_WriteMem(4 bytes @ 0xE0002000) -- CPU_ReadMem(4 bytes @ 0xE000EDFC)
 -- CPU_ReadMem(4 bytes @ 0xE0001000) (0189ms, 0430ms total)
T3EB4 000:431 JLINK_ReadReg(R15 (PC))  returns 0x0000086C (0000ms, 0430ms total)
T3EB4 000:431 JLINK_ReadReg(XPSR)  returns 0x01000000 (0000ms, 0430ms total)
T3EB4 000:431 JLINK_Halt()  returns 0x00 (0000ms, 0430ms total)
T3EB4 000:431 JLINK_ReadMemU32(0xE000EDF0, 0x0001 Items, ...) -- CPU_ReadMem(4 bytes @ 0xE000EDF0) - Data: 0B 00 03 00  returns 0x01 (0001ms, 0431ms total)
T3EB4 000:432 JLINK_WriteU32(0xE000EDF0, 0xA05F0003) -- CPU_WriteMem(4 bytes @ 0xE000EDF0)  returns 0x00 (0001ms, 0432ms total)
T3EB4 000:433 JLINK_WriteU32(0xE000EDFC, 0x01000000) -- CPU_WriteMem(4 bytes @ 0xE000EDFC)  returns 0x00 (0001ms, 0433ms total)
T3EB4 000:434 JLINK_GetHWStatus(...)  returns 0x00 (0000ms, 0433ms total)
T3EB4 000:434 JLINK_GetNumBPUnits(Type = 0xFFFFFF00)  returns 0x06 (0001ms, 0434ms total)
T3EB4 000:435 JLINK_GetNumBPUnits(Type = 0xF0)  returns 0x2000 (0000ms, 0434ms total)
T3EB4 000:435 JLINK_GetNumWPUnits()  returns 0x04 (0000ms, 0434ms total)
T3EB4 000:435 JLINK_GetSpeed()  returns 0x595 (0000ms, 0434ms total)
T3EB4 000:435 JLINK_ReadMemU32(0xE000E004, 0x0001 Items, ...) -- CPU_ReadMem(4 bytes @ 0xE000E004) - Data: 02 00 00 00  returns 0x01 (0000ms, 0434ms total)
T3EB4 000:435 JLINK_ReadMemU32(0xE000E004, 0x0001 Items, ...) -- CPU_ReadMem(4 bytes @ 0xE000E004) - Data: 02 00 00 00  returns 0x01 (0001ms, 0435ms total)
T3EB4 000:436 JLINK_WriteMemEx(0xE0001000, 0x001C Bytes, ..., Flags = 0x02000004) - Data: 01 00 00 00 00 00 00 00 00 00 00 00 00 00 00 00 ... -- CPU_WriteMem(28 bytes @ 0xE0001000)  returns 0x1C (0002ms, 0437ms total)
T3EB4 000:438 JLINK_ReadReg(R15 (PC))  returns 0x0000086C (0000ms, 0437ms total)
T3EB4 000:438 JLINK_ReadReg(XPSR)  returns 0x01000000 (0000ms, 0437ms total)
T3EB4 000:513 JLINK_SetResetType(JLINKARM_CM3_RESET_TYPE_NORMAL)  returns JLINKARM_CM3_RESET_TYPE_NORMAL (0000ms, 0437ms total)
T3EB4 000:513 JLINK_Reset() -- CPU_WriteMem(4 bytes @ 0xE000EDF0) -- CPU_WriteMem(4 bytes @ 0xE000EDFC) >0x35 TIF>Setting AIRCR.SYSRESETREQ -- CPU_WriteMem(4 bytes @ 0xE000ED0C) >0x0D TIF> >0x28 TIF> -- CPU_ReadMem(4 bytes @ 0xE000ED0C) -- CPU_ReadMem(4 bytes @ 0xE000EDF0) -- CPU_ReadMem(4 bytes @ 0xE000EDF0) -- CPU_ReadMem(4 bytes @ 0xE000EDF0) -- CPU_WriteMem(4 bytes @ 0xE000EDF0) -- CPU_WriteMem(4 bytes @ 0xE000EDFC) -- CPU_ReadMem(4 bytes @ 0xE000EDF0)Executing AfterResetTarget() >0x0D TIF>
 >0x28 TIF> >0x0D TIF> >0x28 TIF> >0x0D TIF> >0x28 TIF> >0x0D TIF> >0x28 TIF> >0x0D TIF> >0x28 TIF> >0x0D TIF> >0x21 TIF> >0x0D TIF> >0x21 TIF> >0x0D TIF> >0x28 TIF> >0x0D TIF> >0x28 TIF> >0x0D TIF> >0x21 TIF> >0x0D TIF> >0x21 TIF> >0x0D TIF> >0x28 TIF> >0x0D TIF> >0x28 TIF> >0x0D TIF> >0x28 TIF> >0x0D TIF> >0x28 TIF> >0x0D TIF> >0x28 TIF> >0x0D TIF> >0x28 TIF> >0x0D TIF> >0x21 TIF> >0x0D TIF> >0x21 TIF> >0x0D TIF> >0x21 TIF> >0x0D TIF> >0x28 TIF> >0x0D TIF> >0x28 TIF> >0x0D TIF> >0x28 TIF> >0x0D TIF>
 >0x21 TIF> >0x0D TIF> >0x21 TIF> >0x0D TIF> >0x21 TIF> >0x0D TIF> >0x28 TIF> >0x0D TIF> >0x28 TIF> >0x0D TIF> >0x28 TIF> >0x0D TIF> >0x21 TIF> >0x0D TIF> >0x21 TIF> >0x0D TIF> >0x21 TIF> >0x0D TIF> >0x28 TIF> >0x0D TIF> >0x28 TIF> >0x0D TIF> >0x28 TIF> >0x0D TIF> >0x21 TIF> >0x0D TIF> >0x21 TIF> >0x0D TIF> >0x21 TIF> >0x0D TIF> >0x28 TIF> >0x0D TIF> >0x28 TIF> >0x0D TIF> >0x28 TIF> >0x0D TIF> >0x21 TIF> >0x0D TIF> >0x21 TIF> >0x0D TIF> >0x21 TIF> >0x0D TIF> >0x28 TIF> >0x0D TIF> >0x28 TIF> >0x0D TIF>
 >0x28 TIF> >0x0D TIF> >0x28 TIF> >0x0D TIF> >0x28 TIF> >0x0D TIF> >0x28 TIF> >0x0D TIF> >0x28 TIF> >0x0D TIF> >0x28 TIF> >0x0D TIF> >0x28 TIF> >0x0D TIF> >0x28 TIF> >0x0D TIF> >0x28 TIF> >0x0D TIF> >0x28 TIF> >0x0D TIF> >0x28 TIF> >0x0D TIF> >0x28 TIF> >0x0D TIF> >0x28 TIF> >0x0D TIF> >0x28 TIF> >0x0D TIF> >0x28 TIF> >0x0D TIF> >0x28 TIF> >0x0D TIF> >0x28 TIF> >0x0D TIF> >0x28 TIF> >0x0D TIF> >0x28 TIF> >0x0D TIF> >0x28 TIF> >0x0D TIF> >0x21 TIF> >0x0D TIF> >0x21 TIF> >0x0D TIF> >0x28 TIF> >0x0D TIF>
 >0x21 TIF> >0x0D TIF> >0x21 TIF> >0x0D TIF> >0x28 TIF> >0x0D TIF> >0x28 TIF> >0x0D TIF> >0x28 TIF> >0x0D TIF> >0x28 TIF> >0x0D TIF> >0x28 TIF> >0x0D TIF> >0x28 TIF> >0x0D TIF> >0x28 TIF> >0x0D TIF> >0x28 TIF> >0x0D TIF> >0x21 TIF> >0x0D TIF> >0x21 TIF> >0x0D TIF> >0x28 TIF> >0x0D TIF> >0x28 TIF> >0x0D TIF> >0x28 TIF> >0x0D TIF> >0x28 TIF> >0x0D TIF> >0x28 TIF> >0x0D TIF> >0x28 TIF> >0x0D TIF> >0x28 TIF> >0x0D TIF> >0x28 TIF> >0x0D TIF> >0x28 TIF> >0x0D TIF> >0x28 TIF> >0x0D TIF> >0x28 TIF> >0x0D TIF>
 >0x28 TIF> >0x0D TIF> >0x28 TIF> >0x0D TIF> >0x28 TIF> >0x0D TIF> >0x28 TIF> >0x0D TIF> >0x28 TIF> >0x0D TIF> >0x28 TIF> >0x0D TIF> >0x28 TIF> >0x0D TIF> >0x28 TIF> >0x0D TIF> >0x28 TIF> >0x0D TIF> >0x28 TIF> >0x0D TIF> >0x28 TIF> >0x0D TIF> >0x28 TIF> >0x0D TIF> >0x28 TIF> >0x0D TIF> >0x28 TIF> -- CPU_WriteMem(4 bytes @ 0xE0002000) -- CPU_ReadMem(4 bytes @ 0xE000EDFC) -- CPU_ReadMem(4 bytes @ 0xE0001000) (0193ms, 0630ms total)
T3EB4 000:706 JLINK_ReadReg(R15 (PC))  returns 0x0000086C (0000ms, 0630ms total)
T3EB4 000:706 JLINK_ReadReg(XPSR)  returns 0x01000000 (0000ms, 0630ms total)
T3EB4 000:707 JLINK_ReadMemEx(0x0000076C, 0x003C Bytes, ..., Flags = 0x02000000) -- CPU_ReadMem(128 bytes @ 0x00000740) -- Updating C cache (128 bytes @ 0x00000740) -- Read from C cache (60 bytes @ 0x0000076C) - Data: 1F 49 48 70 98 20 08 70 00 BF 1D 48 80 79 00 F0 ...  returns 0x3C (0002ms, 0632ms total)
T3EB4 000:709 JLINK_ReadMemEx(0x000007A8, 0x003C Bytes, ..., Flags = 0x02000000) -- CPU_ReadMem(64 bytes @ 0x000007C0) -- Updating C cache (64 bytes @ 0x000007C0) -- Read from C cache (60 bytes @ 0x000007A8) - Data: 00 BF 10 48 80 79 00 F0 20 00 00 28 F9 D0 00 BF ...  returns 0x3C (0002ms, 0634ms total)
T3EB4 000:711 JLINK_ReadMemEx(0x000007F0, 0x0010 Bytes, ..., Flags = 0x02000000) -- Read from C cache (16 bytes @ 0x000007F0) - Data: 30 20 00 28 07 DB 00 F0 1F 02 01 21 91 40 17 4A  returns 0x10 (0000ms, 0634ms total)
T3EB4 000:711 JLINK_ReadMemEx(0x00000800, 0x002C Bytes, ..., Flags = 0x02000000) -- CPU_ReadMem(64 bytes @ 0x00000800) -- Updating C cache (64 bytes @ 0x00000800) -- Read from C cache (44 bytes @ 0x00000800) - Data: 43 09 42 F8 23 10 00 BF 30 20 00 28 09 DB 00 F0 ...  returns 0x2C (0001ms, 0635ms total)
T3EB4 000:712 JLINK_ReadMemEx(0x0000082C, 0x003C Bytes, ..., Flags = 0x02000000) -- CPU_ReadMem(64 bytes @ 0x00000840) -- Updating C cache (64 bytes @ 0x00000840) -- Read from C cache (60 bytes @ 0x0000082C) - Data: 0C 49 C8 63 00 20 0C 49 08 60 41 F2 70 70 0B 49 ...  returns 0x3C (0002ms, 0637ms total)
T3EB4 000:714 JLINK_ReadMemEx(0x00000868, 0x003C Bytes, ..., Flags = 0x02000000) -- CPU_ReadMem(64 bytes @ 0x00000880) -- Updating C cache (64 bytes @ 0x00000880) -- Read from C cache (60 bytes @ 0x00000868) - Data: 00 71 03 40 72 B6 29 48 29 49 01 60 0A 68 82 F3 ...  returns 0x3C (0002ms, 0639ms total)
T3EB4 000:824 JLINK_ReadMemEx(0x4003B000, 0x004C Bytes, ..., Flags = 0x02000004) -- CPU_ReadMem(76 bytes @ 0x4003B000) - Data: AA AA AA AA AA AA AA AA AA AA AA AA AA AA AA AA ...  returns 0xFFFFFFFF (0001ms, 0640ms total)
T3EB4 000:825 JLINK_ReadMemEx(0x4003B000, 0x0004 Bytes, ..., Flags = 0x02000004) -- CPU_ReadMem(4 bytes @ 0x4003B000) - Data: AA AA AA AA  returns 0xFFFFFFFF (0002ms, 0642ms total)
T3EB4 000:827 JLINK_ReadMemEx(0x4003B004, 0x0004 Bytes, ..., Flags = 0x02000004) -- CPU_ReadMem(4 bytes @ 0x4003B004) - Data: AA AA AA AA  returns 0xFFFFFFFF (0000ms, 0642ms total)
T3EB4 000:827 JLINK_ReadMemEx(0x4003B008, 0x0004 Bytes, ..., Flags = 0x02000004) -- CPU_ReadMem(4 bytes @ 0x4003B008) - Data: AA AA AA AA  returns 0xFFFFFFFF (0001ms, 0643ms total)
T3EB4 000:828 JLINK_ReadMemEx(0x4003B00C, 0x0004 Bytes, ..., Flags = 0x02000004) -- CPU_ReadMem(4 bytes @ 0x4003B00C) - Data: AA AA AA AA  returns 0xFFFFFFFF (0001ms, 0644ms total)
T3EB4 000:829 JLINK_ReadMemEx(0x4003B010, 0x0004 Bytes, ..., Flags = 0x02000004) -- CPU_ReadMem(4 bytes @ 0x4003B010) - Data: AA AA AA AA  returns 0xFFFFFFFF (0001ms, 0645ms total)
T3EB4 000:830 JLINK_ReadMemEx(0x4003B014, 0x0004 Bytes, ..., Flags = 0x02000004) -- CPU_ReadMem(4 bytes @ 0x4003B014) - Data: AA AA AA AA  returns 0xFFFFFFFF (0001ms, 0646ms total)
T3EB4 000:831 JLINK_ReadMemEx(0x4003B018, 0x0004 Bytes, ..., Flags = 0x02000004) -- CPU_ReadMem(4 bytes @ 0x4003B018) - Data: AA AA AA AA  returns 0xFFFFFFFF (0001ms, 0647ms total)
T3EB4 000:832 JLINK_ReadMemEx(0x4003B01C, 0x0004 Bytes, ..., Flags = 0x02000004) -- CPU_ReadMem(4 bytes @ 0x4003B01C) - Data: AA AA AA AA  returns 0xFFFFFFFF (0001ms, 0648ms total)
T3EB4 000:833 JLINK_ReadMemEx(0x4003B020, 0x0004 Bytes, ..., Flags = 0x02000004) -- CPU_ReadMem(4 bytes @ 0x4003B020) - Data: AA AA AA AA  returns 0xFFFFFFFF (0001ms, 0649ms total)
T3EB4 000:834 JLINK_ReadMemEx(0x4003B024, 0x0004 Bytes, ..., Flags = 0x02000004) -- CPU_ReadMem(4 bytes @ 0x4003B024) - Data: AA AA AA AA  returns 0xFFFFFFFF (0002ms, 0651ms total)
T3EB4 000:836 JLINK_ReadMemEx(0x4003B028, 0x0004 Bytes, ..., Flags = 0x02000004) -- CPU_ReadMem(4 bytes @ 0x4003B028) - Data: AA AA AA AA  returns 0xFFFFFFFF (0001ms, 0652ms total)
T3EB4 000:837 JLINK_ReadMemEx(0x4003B02C, 0x0004 Bytes, ..., Flags = 0x02000004) -- CPU_ReadMem(4 bytes @ 0x4003B02C) - Data: AA AA AA AA  returns 0xFFFFFFFF (0001ms, 0653ms total)
T3EB4 000:838 JLINK_ReadMemEx(0x4003B030, 0x0004 Bytes, ..., Flags = 0x02000004) -- CPU_ReadMem(4 bytes @ 0x4003B030) - Data: AA AA AA AA  returns 0xFFFFFFFF (0001ms, 0654ms total)
T3EB4 000:839 JLINK_ReadMemEx(0x4003B034, 0x0004 Bytes, ..., Flags = 0x02000004) -- CPU_ReadMem(4 bytes @ 0x4003B034) - Data: AA AA AA AA  returns 0xFFFFFFFF (0002ms, 0656ms total)
T3EB4 000:841 JLINK_ReadMemEx(0x4003B038, 0x0004 Bytes, ..., Flags = 0x02000004) -- CPU_ReadMem(4 bytes @ 0x4003B038) - Data: AA AA AA AA  returns 0xFFFFFFFF (0001ms, 0657ms total)
T3EB4 000:842 JLINK_ReadMemEx(0x4003B03C, 0x0004 Bytes, ..., Flags = 0x02000004) -- CPU_ReadMem(4 bytes @ 0x4003B03C) - Data: AA AA AA AA  returns 0xFFFFFFFF (0001ms, 0658ms total)
T3EB4 000:843 JLINK_ReadMemEx(0x4003B040, 0x0004 Bytes, ..., Flags = 0x02000004) -- CPU_ReadMem(4 bytes @ 0x4003B040) - Data: AA AA AA AA  returns 0xFFFFFFFF (0002ms, 0660ms total)
T3EB4 000:845 JLINK_ReadMemEx(0x4003B044, 0x0004 Bytes, ..., Flags = 0x02000004) -- CPU_ReadMem(4 bytes @ 0x4003B044) - Data: AA AA AA AA  returns 0xFFFFFFFF (0001ms, 0661ms total)
T3EB4 000:846 JLINK_ReadMemEx(0x4003B048, 0x0004 Bytes, ..., Flags = 0x02000004) -- CPU_ReadMem(4 bytes @ 0x4003B048) - Data: AA AA AA AA  returns 0xFFFFFFFF (0001ms, 0662ms total)
T3EB4 000:847 JLINK_ReadMemEx(0x4003B04C, 0x0004 Bytes, ..., Flags = 0x02000004) -- CPU_ReadMem(4 bytes @ 0x4003B04C) - Data: AA AA AA AA  returns 0xFFFFFFFF (0001ms, 0663ms total)
T3EB4 000:848 JLINK_ReadMemEx(0x4003B04C, 0x0004 Bytes, ..., Flags = 0x02000004) -- CPU_ReadMem(4 bytes @ 0x4003B04C) - Data: AA AA AA AA  returns 0xFFFFFFFF (0001ms, 0664ms total)
T3EB4 000:849 JLINK_ReadMemEx(0x4003B054, 0x0018 Bytes, ..., Flags = 0x02000004) -- CPU_ReadMem(24 bytes @ 0x4003B054) - Data: AA AA AA AA AA AA AA AA AA AA AA AA AA AA AA AA ...  returns 0xFFFFFFFF (0002ms, 0666ms total)
T3EB4 000:851 JLINK_ReadMemEx(0x4003B054, 0x0004 Bytes, ..., Flags = 0x02000004) -- CPU_ReadMem(4 bytes @ 0x4003B054) - Data: AA AA AA AA  returns 0xFFFFFFFF (0001ms, 0667ms total)
T3EB4 000:852 JLINK_ReadMemEx(0x4003B058, 0x0004 Bytes, ..., Flags = 0x02000004) -- CPU_ReadMem(4 bytes @ 0x4003B058) - Data: AA AA AA AA  returns 0xFFFFFFFF (0001ms, 0668ms total)
T3EB4 000:853 JLINK_ReadMemEx(0x4003B05C, 0x0004 Bytes, ..., Flags = 0x02000004) -- CPU_ReadMem(4 bytes @ 0x4003B05C) - Data: AA AA AA AA  returns 0xFFFFFFFF (0001ms, 0669ms total)
T3EB4 000:854 JLINK_ReadMemEx(0x4003B060, 0x0004 Bytes, ..., Flags = 0x02000004) -- CPU_ReadMem(4 bytes @ 0x4003B060) - Data: AA AA AA AA  returns 0xFFFFFFFF (0002ms, 0671ms total)
T3EB4 000:856 JLINK_ReadMemEx(0x4003B064, 0x0004 Bytes, ..., Flags = 0x02000004) -- CPU_ReadMem(4 bytes @ 0x4003B064) - Data: AA AA AA AA  returns 0xFFFFFFFF (0001ms, 0672ms total)
T3EB4 000:857 JLINK_ReadMemEx(0x4003B068, 0x0004 Bytes, ..., Flags = 0x02000004) -- CPU_ReadMem(4 bytes @ 0x4003B068) - Data: AA AA AA AA  returns 0xFFFFFFFF (0001ms, 0673ms total)
T3EB4 000:858 JLINK_ReadMemEx(0x4003B06C, 0x0004 Bytes, ..., Flags = 0x02000004) -- CPU_ReadMem(4 bytes @ 0x4003B06C) - Data: AA AA AA AA  returns 0xFFFFFFFF (0001ms, 0674ms total)
T3EB4 000:859 JLINK_ReadMemEx(0x4003B06C, 0x0004 Bytes, ..., Flags = 0x02000004) -- CPU_ReadMem(4 bytes @ 0x4003B06C) - Data: AA AA AA AA  returns 0xFFFFFFFF (0002ms, 0676ms total)
T3EB4 002:026 JLINK_ReadReg(R0)  returns 0x00000000 (0000ms, 0676ms total)
T3EB4 002:026 JLINK_ReadReg(R1)  returns 0x00000000 (0000ms, 0676ms total)
T3EB4 002:026 JLINK_ReadReg(R2)  returns 0x00000000 (0000ms, 0676ms total)
T3EB4 002:026 JLINK_ReadReg(R3)  returns 0x00000000 (0000ms, 0676ms total)
T3EB4 002:026 JLINK_ReadReg(R4)  returns 0x00000000 (0000ms, 0676ms total)
T3EB4 002:026 JLINK_ReadReg(R5)  returns 0x00000000 (0000ms, 0676ms total)
T3EB4 002:026 JLINK_ReadReg(R6)  returns 0x00000000 (0000ms, 0676ms total)
T3EB4 002:026 JLINK_ReadReg(R7)  returns 0x00000000 (0000ms, 0676ms total)
T3EB4 002:026 JLINK_ReadReg(R8)  returns 0x00000000 (0000ms, 0676ms total)
T3EB4 002:026 JLINK_ReadReg(R9)  returns 0x00000000 (0000ms, 0676ms total)
T3EB4 002:026 JLINK_ReadReg(R10)  returns 0x00000000 (0000ms, 0676ms total)
T3EB4 002:026 JLINK_ReadReg(R11)  returns 0x00000000 (0000ms, 0676ms total)
T3EB4 002:026 JLINK_ReadReg(R12)  returns 0x00000000 (0000ms, 0676ms total)
T3EB4 002:026 JLINK_ReadReg(R13 (SP))  returns 0x20010000 (0000ms, 0676ms total)
T3EB4 002:026 JLINK_ReadReg(R14)  returns 0xFFFFFFFF (0000ms, 0676ms total)
T3EB4 002:026 JLINK_ReadReg(R15 (PC))  returns 0x0000086C (0000ms, 0676ms total)
T3EB4 002:026 JLINK_ReadReg(XPSR)  returns 0x01000000 (0000ms, 0676ms total)
T3EB4 002:026 JLINK_ReadReg(MSP)  returns 0x20010000 (0002ms, 0678ms total)
T3EB4 002:028 JLINK_ReadReg(PSP)  returns 0x00000000 (0000ms, 0678ms total)
T3EB4 002:028 JLINK_ReadReg(CFBP)  returns 0x00000000 (0000ms, 0678ms total)
T3EB4 002:028 JLINK_ReadReg(FPSCR)  returns 0x00000000 (0005ms, 0683ms total)
T3EB4 002:033 JLINK_ReadReg(FPS0)  returns 0x00000000 (0000ms, 0683ms total)
T3EB4 002:033 JLINK_ReadReg(FPS1)  returns 0x00000000 (0000ms, 0683ms total)
T3EB4 002:033 JLINK_ReadReg(FPS2)  returns 0x00000000 (0000ms, 0683ms total)
T3EB4 002:033 JLINK_ReadReg(FPS3)  returns 0x00000000 (0000ms, 0683ms total)
T3EB4 002:033 JLINK_ReadReg(FPS4)  returns 0x00000000 (0000ms, 0683ms total)
T3EB4 002:033 JLINK_ReadReg(FPS5)  returns 0x00000000 (0000ms, 0683ms total)
T3EB4 002:033 JLINK_ReadReg(FPS6)  returns 0x00000000 (0000ms, 0683ms total)
T3EB4 002:033 JLINK_ReadReg(FPS7)  returns 0x00000000 (0000ms, 0683ms total)
T3EB4 002:033 JLINK_ReadReg(FPS8)  returns 0x00000000 (0000ms, 0683ms total)
T3EB4 002:033 JLINK_ReadReg(FPS9)  returns 0x00000000 (0000ms, 0683ms total)
T3EB4 002:033 JLINK_ReadReg(FPS10)  returns 0x00000000 (0000ms, 0683ms total)
T3EB4 002:033 JLINK_ReadReg(FPS11)  returns 0x00000000 (0000ms, 0683ms total)
T3EB4 002:033 JLINK_ReadReg(FPS12)  returns 0x00000000 (0000ms, 0683ms total)
T3EB4 002:033 JLINK_ReadReg(FPS13)  returns 0x00000000 (0000ms, 0683ms total)
T3EB4 002:033 JLINK_ReadReg(FPS14)  returns 0x00000000 (0000ms, 0683ms total)
T3EB4 002:033 JLINK_ReadReg(FPS15)  returns 0x00000000 (0000ms, 0683ms total)
T3EB4 002:033 JLINK_ReadReg(FPS16)  returns 0x00000000 (0000ms, 0683ms total)
T3EB4 002:033 JLINK_ReadReg(FPS17)  returns 0x00000000 (0000ms, 0683ms total)
T3EB4 002:033 JLINK_ReadReg(FPS18)  returns 0x00000000 (0000ms, 0683ms total)
T3EB4 002:033 JLINK_ReadReg(FPS19)  returns 0x00000000 (0000ms, 0683ms total)
T3EB4 002:033 JLINK_ReadReg(FPS20)  returns 0x00000000 (0000ms, 0683ms total)
T3EB4 002:033 JLINK_ReadReg(FPS21)  returns 0x00000000 (0000ms, 0683ms total)
T3EB4 002:033 JLINK_ReadReg(FPS22)  returns 0x00000000 (0000ms, 0683ms total)
T3EB4 002:033 JLINK_ReadReg(FPS23)  returns 0x00000000 (0000ms, 0683ms total)
T3EB4 002:033 JLINK_ReadReg(FPS24)  returns 0x00000000 (0000ms, 0683ms total)
T3EB4 002:033 JLINK_ReadReg(FPS25)  returns 0x00000000 (0000ms, 0683ms total)
T3EB4 002:033 JLINK_ReadReg(FPS26)  returns 0x00000000 (0000ms, 0683ms total)
T3EB4 002:033 JLINK_ReadReg(FPS27)  returns 0x00000000 (0000ms, 0683ms total)
T3EB4 002:033 JLINK_ReadReg(FPS28)  returns 0x00000000 (0000ms, 0683ms total)
T3EB4 002:033 JLINK_ReadReg(FPS29)  returns 0x00000000 (0000ms, 0683ms total)
T3EB4 002:033 JLINK_ReadReg(FPS30)  returns 0x00000000 (0000ms, 0683ms total)
T3EB4 002:033 JLINK_ReadReg(FPS31)  returns 0x00000000 (0000ms, 0683ms total)
T3EB4 002:041 JLINK_ReadMemEx(0x1FFF0004, 0x0004 Bytes, ..., Flags = 0x02000000) -- CPU_ReadMem(64 bytes @ 0x1FFF0000) -- Updating C cache (64 bytes @ 0x1FFF0000) -- Read from C cache (4 bytes @ 0x1FFF0004) - Data: 0A 00 00 00  returns 0x04 (0000ms, 0683ms total)
T3EB4 002:045 JLINK_ReadMemEx(0x1FFF0018, 0x0004 Bytes, ..., Flags = 0x02000000) -- Read from C cache (4 bytes @ 0x1FFF0018) - Data: 00 00 C8 41  returns 0x04 (0000ms, 0683ms total)
T3EB4 002:048 JLINK_ReadMemEx(0x1FFF0014, 0x0004 Bytes, ..., Flags = 0x02000000) -- Read from C cache (4 bytes @ 0x1FFF0014) - Data: 4A 82 58 42  returns 0x04 (0000ms, 0683ms total)
T3EB4 002:052 JLINK_ReadMemEx(0x1FFF0002, 0x0002 Bytes, ..., Flags = 0x02000000) -- Read from C cache (2 bytes @ 0x1FFF0002) - Data: E0 04  returns 0x02 (0000ms, 0683ms total)
T20AC 002:073 JLINK_ReadMemEx(0x0000086C, 0x0002 Bytes, ..., Flags = 0x02000000) -- Read from C cache (2 bytes @ 0x0000086C) - Data: 72 B6  returns 0x02 (0000ms, 0683ms total)
T20AC 002:073 JLINK_SetBPEx(Addr = 0x000006E8, Type = 0xFFFFFFF2)  returns 0x00000001 (0000ms, 0683ms total)
T20AC 002:073 JLINK_Go() -- CPU_WriteMem(4 bytes @ 0xE0002000) -- CPU_ReadMem(4 bytes @ 0xE0001000) -- CPU_WriteMem(4 bytes @ 0xE0002008) -- CPU_WriteMem(4 bytes @ 0xE000200C) -- CPU_WriteMem(4 bytes @ 0xE0002010) -- CPU_WriteMem(4 bytes @ 0xE0002014) -- CPU_WriteMem(4 bytes @ 0xE0002018) -- CPU_WriteMem(4 bytes @ 0xE000201C) -- CPU_WriteMem(4 bytes @ 0xE0001004) (0005ms, 0688ms total)
T20AC 002:180 JLINK_IsHalted()  returns TRUE (0004ms, 0692ms total)
T20AC 002:184 JLINK_Halt()  returns 0x00 (0000ms, 0688ms total)
T20AC 002:184 JLINK_IsHalted()  returns TRUE (0000ms, 0688ms total)
T20AC 002:184 JLINK_IsHalted()  returns TRUE (0001ms, 0689ms total)
T20AC 002:185 JLINK_IsHalted()  returns TRUE (0000ms, 0688ms total)
T20AC 002:185 JLINK_ReadReg(R15 (PC))  returns 0x000006E8 (0000ms, 0688ms total)
T20AC 002:185 JLINK_ReadReg(XPSR)  returns 0x61000000 (0000ms, 0688ms total)
T20AC 002:185 JLINK_ClrBPEx(BPHandle = 0x00000001)  returns 0x00 (0000ms, 0688ms total)
T20AC 002:185 JLINK_ReadMemU32(0xE000ED30, 0x0001 Items, ...) -- CPU_ReadMem(4 bytes @ 0xE000ED30) - Data: 03 00 00 00  returns 0x01 (0001ms, 0689ms total)
T20AC 002:186 JLINK_ReadMemU32(0xE0001028, 0x0001 Items, ...) -- CPU_ReadMem(4 bytes @ 0xE0001028) - Data: 00 00 00 00  returns 0x01 (0000ms, 0689ms total)
T20AC 002:186 JLINK_ReadMemU32(0xE0001038, 0x0001 Items, ...) -- CPU_ReadMem(4 bytes @ 0xE0001038) - Data: 00 02 00 00  returns 0x01 (0002ms, 0691ms total)
T20AC 002:188 JLINK_ReadMemU32(0xE0001048, 0x0001 Items, ...) -- CPU_ReadMem(4 bytes @ 0xE0001048) - Data: 00 00 00 00  returns 0x01 (0001ms, 0692ms total)
T20AC 002:190 JLINK_ReadMemU32(0xE0001058, 0x0001 Items, ...) -- CPU_ReadMem(4 bytes @ 0xE0001058) - Data: 00 00 00 00  returns 0x01 (0000ms, 0692ms total)
T20AC 002:190 JLINK_ReadReg(R0)  returns 0x000013E4 (0000ms, 0692ms total)
T20AC 002:190 JLINK_ReadReg(R1)  returns 0x1FFF00D4 (0000ms, 0692ms total)
T20AC 002:190 JLINK_ReadReg(R2)  returns 0x00000000 (0000ms, 0692ms total)
T20AC 002:190 JLINK_ReadReg(R3)  returns 0x00000000 (0000ms, 0692ms total)
T20AC 002:190 JLINK_ReadReg(R4)  returns 0x00000000 (0000ms, 0692ms total)
T20AC 002:190 JLINK_ReadReg(R5)  returns 0x00000000 (0000ms, 0692ms total)
T20AC 002:190 JLINK_ReadReg(R6)  returns 0x00000000 (0000ms, 0692ms total)
T20AC 002:190 JLINK_ReadReg(R7)  returns 0x0000134F (0000ms, 0692ms total)
T20AC 002:190 JLINK_ReadReg(R8)  returns 0x00000000 (0000ms, 0692ms total)
T20AC 002:190 JLINK_ReadReg(R9)  returns 0x00000000 (0000ms, 0692ms total)
T20AC 002:190 JLINK_ReadReg(R10)  returns 0x00001370 (0000ms, 0692ms total)
T20AC 002:190 JLINK_ReadReg(R11)  returns 0x00001370 (0000ms, 0692ms total)
T20AC 002:190 JLINK_ReadReg(R12)  returns 0x00000000 (0000ms, 0692ms total)
T20AC 002:190 JLINK_ReadReg(R13 (SP))  returns 0x20010000 (0000ms, 0692ms total)
T20AC 002:190 JLINK_ReadReg(R14)  returns 0x0000049D (0000ms, 0692ms total)
T20AC 002:190 JLINK_ReadReg(R15 (PC))  returns 0x000006E8 (0000ms, 0692ms total)
T20AC 002:192 JLINK_ReadReg(XPSR)  returns 0x61000000 (0000ms, 0694ms total)
T20AC 002:192 JLINK_ReadReg(MSP)  returns 0x20010000 (0000ms, 0694ms total)
T20AC 002:192 JLINK_ReadReg(PSP)  returns 0x00000000 (0000ms, 0694ms total)
T20AC 002:192 JLINK_ReadReg(CFBP)  returns 0x04000000 (0000ms, 0694ms total)
T20AC 002:192 JLINK_ReadReg(FPSCR)  returns 0x03000000 (0006ms, 0700ms total)
T20AC 002:198 JLINK_ReadReg(FPS0)  returns 0x00000000 (0000ms, 0700ms total)
T20AC 002:198 JLINK_ReadReg(FPS1)  returns 0x00000000 (0000ms, 0700ms total)
T20AC 002:198 JLINK_ReadReg(FPS2)  returns 0x00000000 (0000ms, 0700ms total)
T20AC 002:198 JLINK_ReadReg(FPS3)  returns 0x00000000 (0000ms, 0700ms total)
T20AC 002:198 JLINK_ReadReg(FPS4)  returns 0x00000000 (0000ms, 0700ms total)
T20AC 002:198 JLINK_ReadReg(FPS5)  returns 0x00000000 (0000ms, 0700ms total)
T20AC 002:198 JLINK_ReadReg(FPS6)  returns 0x00000000 (0000ms, 0700ms total)
T20AC 002:198 JLINK_ReadReg(FPS7)  returns 0x00000000 (0000ms, 0700ms total)
T20AC 002:198 JLINK_ReadReg(FPS8)  returns 0x00000000 (0000ms, 0700ms total)
T20AC 002:199 JLINK_ReadReg(FPS9)  returns 0x00000000 (0000ms, 0700ms total)
T20AC 002:199 JLINK_ReadReg(FPS10)  returns 0x00000000 (0000ms, 0700ms total)
T20AC 002:199 JLINK_ReadReg(FPS11)  returns 0x00000000 (0000ms, 0700ms total)
T20AC 002:199 JLINK_ReadReg(FPS12)  returns 0x00000000 (0000ms, 0700ms total)
T20AC 002:199 JLINK_ReadReg(FPS13)  returns 0x00000000 (0000ms, 0700ms total)
T20AC 002:199 JLINK_ReadReg(FPS14)  returns 0x00000000 (0000ms, 0700ms total)
T20AC 002:199 JLINK_ReadReg(FPS15)  returns 0x00000000 (0000ms, 0700ms total)
T20AC 002:199 JLINK_ReadReg(FPS16)  returns 0x00000000 (0000ms, 0700ms total)
T20AC 002:199 JLINK_ReadReg(FPS17)  returns 0x00000000 (0000ms, 0700ms total)
T20AC 002:199 JLINK_ReadReg(FPS18)  returns 0x00000000 (0000ms, 0700ms total)
T20AC 002:199 JLINK_ReadReg(FPS19)  returns 0x00000000 (0000ms, 0700ms total)
T20AC 002:199 JLINK_ReadReg(FPS20)  returns 0x00000000 (0000ms, 0700ms total)
T20AC 002:199 JLINK_ReadReg(FPS21)  returns 0x00000000 (0000ms, 0700ms total)
T20AC 002:199 JLINK_ReadReg(FPS22)  returns 0x00000000 (0000ms, 0700ms total)
T20AC 002:199 JLINK_ReadReg(FPS23)  returns 0x00000000 (0000ms, 0700ms total)
T20AC 002:199 JLINK_ReadReg(FPS24)  returns 0x00000000 (0000ms, 0700ms total)
T20AC 002:199 JLINK_ReadReg(FPS25)  returns 0x00000000 (0000ms, 0700ms total)
T20AC 002:199 JLINK_ReadReg(FPS26)  returns 0x00000000 (0000ms, 0700ms total)
T20AC 002:199 JLINK_ReadReg(FPS27)  returns 0x00000000 (0000ms, 0700ms total)
T20AC 002:199 JLINK_ReadReg(FPS28)  returns 0x00000000 (0000ms, 0700ms total)
T20AC 002:199 JLINK_ReadReg(FPS29)  returns 0x00000000 (0000ms, 0700ms total)
T20AC 002:199 JLINK_ReadReg(FPS30)  returns 0x00000000 (0000ms, 0700ms total)
T20AC 002:199 JLINK_ReadReg(FPS31)  returns 0x00000000 (0001ms, 0701ms total)
T3EB4 002:201 JLINK_ReadMemU32(0xE0001004, 0x0001 Items, ...) -- CPU_ReadMem(4 bytes @ 0xE0001004) - Data: 43 01 00 00  returns 0x01 (0001ms, 0702ms total)
T3EB4 002:202 JLINK_ReadMemEx(0x1FFF0004, 0x0004 Bytes, ..., Flags = 0x02000000) -- CPU_ReadMem(64 bytes @ 0x1FFF0000) -- Updating C cache (64 bytes @ 0x1FFF0000) -- Read from C cache (4 bytes @ 0x1FFF0004) - Data: 01 00 00 00  returns 0x04 (0002ms, 0704ms total)
T3EB4 002:205 JLINK_ReadMemEx(0x1FFF0018, 0x0004 Bytes, ..., Flags = 0x02000000) -- Read from C cache (4 bytes @ 0x1FFF0018) - Data: 00 00 00 00  returns 0x04 (0000ms, 0704ms total)
T3EB4 002:205 JLINK_ReadMemEx(0x1FFF0014, 0x0004 Bytes, ..., Flags = 0x02000000) -- Read from C cache (4 bytes @ 0x1FFF0014) - Data: 00 00 00 00  returns 0x04 (0000ms, 0704ms total)
T3EB4 002:206 JLINK_ReadMemEx(0x1FFF0002, 0x0002 Bytes, ..., Flags = 0x02000000) -- Read from C cache (2 bytes @ 0x1FFF0002) - Data: 00 00  returns 0x02 (0000ms, 0704ms total)
T3EB4 002:209 JLINK_ReadMemEx(0x4003B000, 0x004C Bytes, ..., Flags = 0x02000004) -- CPU_ReadMem(76 bytes @ 0x4003B000) - Data: AA AA AA AA AA AA AA AA AA AA AA AA AA AA AA AA ...  returns 0xFFFFFFFF (0002ms, 0706ms total)
T3EB4 002:211 JLINK_ReadMemEx(0x4003B000, 0x0004 Bytes, ..., Flags = 0x02000004) -- CPU_ReadMem(4 bytes @ 0x4003B000) - Data: AA AA AA AA  returns 0xFFFFFFFF (0000ms, 0706ms total)
T3EB4 002:211 JLINK_ReadMemEx(0x4003B004, 0x0004 Bytes, ..., Flags = 0x02000004) -- CPU_ReadMem(4 bytes @ 0x4003B004) - Data: AA AA AA AA  returns 0xFFFFFFFF (0002ms, 0708ms total)
T3EB4 002:213 JLINK_ReadMemEx(0x4003B008, 0x0004 Bytes, ..., Flags = 0x02000004) -- CPU_ReadMem(4 bytes @ 0x4003B008) - Data: AA AA AA AA  returns 0xFFFFFFFF (0001ms, 0709ms total)
T3EB4 002:214 JLINK_ReadMemEx(0x4003B00C, 0x0004 Bytes, ..., Flags = 0x02000004) -- CPU_ReadMem(4 bytes @ 0x4003B00C) - Data: AA AA AA AA  returns 0xFFFFFFFF (0001ms, 0710ms total)
T3EB4 002:215 JLINK_ReadMemEx(0x4003B010, 0x0004 Bytes, ..., Flags = 0x02000004) -- CPU_ReadMem(4 bytes @ 0x4003B010) - Data: AA AA AA AA  returns 0xFFFFFFFF (0002ms, 0712ms total)
T3EB4 002:217 JLINK_ReadMemEx(0x4003B014, 0x0004 Bytes, ..., Flags = 0x02000004) -- CPU_ReadMem(4 bytes @ 0x4003B014) - Data: AA AA AA AA  returns 0xFFFFFFFF (0002ms, 0714ms total)
T3EB4 002:219 JLINK_ReadMemEx(0x4003B018, 0x0004 Bytes, ..., Flags = 0x02000004) -- CPU_ReadMem(4 bytes @ 0x4003B018) - Data: AA AA AA AA  returns 0xFFFFFFFF (0002ms, 0716ms total)
T3EB4 002:221 JLINK_ReadMemEx(0x4003B01C, 0x0004 Bytes, ..., Flags = 0x02000004) -- CPU_ReadMem(4 bytes @ 0x4003B01C) - Data: AA AA AA AA  returns 0xFFFFFFFF (0001ms, 0717ms total)
T3EB4 002:222 JLINK_ReadMemEx(0x4003B020, 0x0004 Bytes, ..., Flags = 0x02000004) -- CPU_ReadMem(4 bytes @ 0x4003B020) - Data: AA AA AA AA  returns 0xFFFFFFFF (0001ms, 0718ms total)
T3EB4 002:223 JLINK_ReadMemEx(0x4003B024, 0x0004 Bytes, ..., Flags = 0x02000004) -- CPU_ReadMem(4 bytes @ 0x4003B024) - Data: AA AA AA AA  returns 0xFFFFFFFF (0002ms, 0720ms total)
T3EB4 002:225 JLINK_ReadMemEx(0x4003B028, 0x0004 Bytes, ..., Flags = 0x02000004) -- CPU_ReadMem(4 bytes @ 0x4003B028) - Data: AA AA AA AA  returns 0xFFFFFFFF (0001ms, 0721ms total)
T3EB4 002:226 JLINK_ReadMemEx(0x4003B02C, 0x0004 Bytes, ..., Flags = 0x02000004) -- CPU_ReadMem(4 bytes @ 0x4003B02C) - Data: AA AA AA AA  returns 0xFFFFFFFF (0001ms, 0722ms total)
T3EB4 002:227 JLINK_ReadMemEx(0x4003B030, 0x0004 Bytes, ..., Flags = 0x02000004) -- CPU_ReadMem(4 bytes @ 0x4003B030) - Data: AA AA AA AA  returns 0xFFFFFFFF (0000ms, 0722ms total)
T3EB4 002:227 JLINK_ReadMemEx(0x4003B034, 0x0004 Bytes, ..., Flags = 0x02000004) -- CPU_ReadMem(4 bytes @ 0x4003B034) - Data: AA AA AA AA  returns 0xFFFFFFFF (0002ms, 0724ms total)
T3EB4 002:229 JLINK_ReadMemEx(0x4003B038, 0x0004 Bytes, ..., Flags = 0x02000004) -- CPU_ReadMem(4 bytes @ 0x4003B038) - Data: AA AA AA AA  returns 0xFFFFFFFF (0002ms, 0726ms total)
T3EB4 002:231 JLINK_ReadMemEx(0x4003B03C, 0x0004 Bytes, ..., Flags = 0x02000004) -- CPU_ReadMem(4 bytes @ 0x4003B03C) - Data: AA AA AA AA  returns 0xFFFFFFFF (0001ms, 0727ms total)
T3EB4 002:232 JLINK_ReadMemEx(0x4003B040, 0x0004 Bytes, ..., Flags = 0x02000004) -- CPU_ReadMem(4 bytes @ 0x4003B040) - Data: AA AA AA AA  returns 0xFFFFFFFF (0001ms, 0728ms total)
T3EB4 002:233 JLINK_ReadMemEx(0x4003B044, 0x0004 Bytes, ..., Flags = 0x02000004) -- CPU_ReadMem(4 bytes @ 0x4003B044) - Data: AA AA AA AA  returns 0xFFFFFFFF (0002ms, 0730ms total)
T3EB4 002:235 JLINK_ReadMemEx(0x4003B048, 0x0004 Bytes, ..., Flags = 0x02000004) -- CPU_ReadMem(4 bytes @ 0x4003B048) - Data: AA AA AA AA  returns 0xFFFFFFFF (0001ms, 0731ms total)
T3EB4 002:236 JLINK_ReadMemEx(0x4003B04C, 0x0004 Bytes, ..., Flags = 0x02000004) -- CPU_ReadMem(4 bytes @ 0x4003B04C) - Data: AA AA AA AA  returns 0xFFFFFFFF (0000ms, 0731ms total)
T3EB4 002:236 JLINK_ReadMemEx(0x4003B04C, 0x0004 Bytes, ..., Flags = 0x02000004) -- CPU_ReadMem(4 bytes @ 0x4003B04C) - Data: AA AA AA AA  returns 0xFFFFFFFF (0001ms, 0732ms total)
T3EB4 002:237 JLINK_ReadMemEx(0x4003B054, 0x0018 Bytes, ..., Flags = 0x02000004) -- CPU_ReadMem(24 bytes @ 0x4003B054) - Data: AA AA AA AA AA AA AA AA AA AA AA AA AA AA AA AA ...  returns 0xFFFFFFFF (0003ms, 0735ms total)
T3EB4 002:240 JLINK_ReadMemEx(0x4003B054, 0x0004 Bytes, ..., Flags = 0x02000004) -- CPU_ReadMem(4 bytes @ 0x4003B054) - Data: AA AA AA AA  returns 0xFFFFFFFF (0001ms, 0736ms total)
T3EB4 002:241 JLINK_ReadMemEx(0x4003B058, 0x0004 Bytes, ..., Flags = 0x02000004) -- CPU_ReadMem(4 bytes @ 0x4003B058) - Data: AA AA AA AA  returns 0xFFFFFFFF (0001ms, 0737ms total)
T3EB4 002:242 JLINK_ReadMemEx(0x4003B05C, 0x0004 Bytes, ..., Flags = 0x02000004) -- CPU_ReadMem(4 bytes @ 0x4003B05C) - Data: AA AA AA AA  returns 0xFFFFFFFF (0000ms, 0737ms total)
T3EB4 002:242 JLINK_ReadMemEx(0x4003B060, 0x0004 Bytes, ..., Flags = 0x02000004) -- CPU_ReadMem(4 bytes @ 0x4003B060) - Data: AA AA AA AA  returns 0xFFFFFFFF (0003ms, 0740ms total)
T3EB4 002:245 JLINK_ReadMemEx(0x4003B064, 0x0004 Bytes, ..., Flags = 0x02000004) -- CPU_ReadMem(4 bytes @ 0x4003B064) - Data: AA AA AA AA  returns 0xFFFFFFFF (0001ms, 0741ms total)
T3EB4 002:246 JLINK_ReadMemEx(0x4003B068, 0x0004 Bytes, ..., Flags = 0x02000004) -- CPU_ReadMem(4 bytes @ 0x4003B068) - Data: AA AA AA AA  returns 0xFFFFFFFF (0001ms, 0742ms total)
T3EB4 002:247 JLINK_ReadMemEx(0x4003B06C, 0x0004 Bytes, ..., Flags = 0x02000004) -- CPU_ReadMem(4 bytes @ 0x4003B06C) - Data: AA AA AA AA  returns 0xFFFFFFFF (0001ms, 0743ms total)
T3EB4 002:248 JLINK_ReadMemEx(0x4003B06C, 0x0004 Bytes, ..., Flags = 0x02000004) -- CPU_ReadMem(4 bytes @ 0x4003B06C) - Data: AA AA AA AA  returns 0xFFFFFFFF (0001ms, 0744ms total)
T3EB4 002:254 JLINK_ReadMemEx(0x000006E2, 0x0002 Bytes, ..., Flags = 0x02000000) -- CPU_ReadMem(64 bytes @ 0x000006C0) -- Updating C cache (64 bytes @ 0x000006C0) -- Read from C cache (2 bytes @ 0x000006E2) - Data: BD EC  returns 0x02 (0001ms, 0745ms total)
T3EB4 002:255 JLINK_ReadMemEx(0x000006E4, 0x003C Bytes, ..., Flags = 0x02000000) -- CPU_ReadMem(64 bytes @ 0x00000700) -- Updating C cache (64 bytes @ 0x00000700) -- Read from C cache (60 bytes @ 0x000006E4) - Data: 04 8B 10 BD 00 F0 2C F8 FF F7 E0 FE FF F7 F6 FE ...  returns 0x3C (0002ms, 0747ms total)
T20AC 004:137 JLINK_ReadMemEx(0x000006E8, 0x0002 Bytes, ..., Flags = 0x02000000) -- Read from C cache (2 bytes @ 0x000006E8) - Data: 00 F0  returns 0x02 (0000ms, 0747ms total)
T20AC 004:137 JLINK_Go() -- CPU_ReadMem(4 bytes @ 0xE0001000) -- CPU_WriteMem(4 bytes @ 0xE0002008) (0004ms, 0751ms total)
T20AC 004:241 JLINK_IsHalted()  returns FALSE (0001ms, 0752ms total)
T20AC 004:343 JLINK_IsHalted()  returns FALSE (0001ms, 0752ms total)
T20AC 004:445 JLINK_IsHalted()  returns FALSE (0001ms, 0752ms total)
T20AC 004:547 JLINK_IsHalted()  returns FALSE (0001ms, 0752ms total)
T20AC 004:649 JLINK_ReadMemU32(0xE0001004, 0x0001 Items, ...) -- CPU_ReadMem(4 bytes @ 0xE0001004) - Data: CA FD A0 03  returns 0x01 (0001ms, 0752ms total)
T3EB4 004:650 JLINK_ReadMemEx(0x1FFF0004, 0x0004 Bytes, ..., Flags = 0x02000000) -- CPU_ReadMem(4 bytes @ 0x1FFF0004) - Data: 01 00 00 00  returns 0x04 (0001ms, 0753ms total)
T3EB4 004:651 JLINK_ReadMemEx(0x1FFF0018, 0x0004 Bytes, ..., Flags = 0x02000000) -- CPU_ReadMem(4 bytes @ 0x1FFF0018) - Data: 00 00 C8 41  returns 0x04 (0002ms, 0755ms total)
T3EB4 004:654 JLINK_ReadMemEx(0x1FFF0014, 0x0004 Bytes, ..., Flags = 0x02000000) -- CPU_ReadMem(4 bytes @ 0x1FFF0014) - Data: FF 4B 02 3F  returns 0x04 (0001ms, 0756ms total)
T3EB4 004:656 JLINK_ReadMemEx(0x1FFF0002, 0x0002 Bytes, ..., Flags = 0x02000000) -- CPU_ReadMem(2 bytes @ 0x1FFF0002) - Data: 62 01  returns 0x02 (0001ms, 0757ms total)
T3EB4 004:664 JLINK_ReadMemEx(0x4003B000, 0x004C Bytes, ..., Flags = 0x02000004) -- CPU_ReadMem(76 bytes @ 0x4003B000) - Data: 1F 00 00 00 1F 00 00 00 44 00 00 00 03 00 00 00 ...  returns 0x4C (0002ms, 0759ms total)
T3EB4 004:666 JLINK_ReadMemEx(0x4003B000, 0x0004 Bytes, ..., Flags = 0x02000004) -- CPU_ReadMem(4 bytes @ 0x4003B000) - Data: 1F 00 00 00  returns 0x04 (0001ms, 0760ms total)
T3EB4 004:667 JLINK_ReadMemEx(0x4003B004, 0x0004 Bytes, ..., Flags = 0x02000004) -- CPU_ReadMem(4 bytes @ 0x4003B004) - Data: 1F 00 00 00  returns 0x04 (0001ms, 0761ms total)
T3EB4 004:668 JLINK_ReadMemEx(0x4003B008, 0x0004 Bytes, ..., Flags = 0x02000004) -- CPU_ReadMem(4 bytes @ 0x4003B008) - Data: 44 00 00 00  returns 0x04 (0002ms, 0763ms total)
T3EB4 004:670 JLINK_ReadMemEx(0x4003B00C, 0x0004 Bytes, ..., Flags = 0x02000004) -- CPU_ReadMem(4 bytes @ 0x4003B00C) - Data: 03 00 00 00  returns 0x04 (0001ms, 0764ms total)
T3EB4 004:671 JLINK_ReadMemEx(0x4003B010, 0x0004 Bytes, ..., Flags = 0x02000004) -- CPU_ReadMem(4 bytes @ 0x4003B010) - Data: 00 00 00 00  returns 0x04 (0001ms, 0765ms total)
T3EB4 004:672 JLINK_ReadMemEx(0x4003B014, 0x0004 Bytes, ..., Flags = 0x02000004) -- CPU_ReadMem(4 bytes @ 0x4003B014) - Data: 00 00 00 00  returns 0x04 (0000ms, 0765ms total)
T3EB4 004:672 JLINK_ReadMemEx(0x4003B018, 0x0004 Bytes, ..., Flags = 0x02000004) -- CPU_ReadMem(4 bytes @ 0x4003B018) - Data: 00 00 00 00  returns 0x04 (0001ms, 0766ms total)
T3EB4 004:673 JLINK_ReadMemEx(0x4003B01C, 0x0004 Bytes, ..., Flags = 0x02000004) -- CPU_ReadMem(4 bytes @ 0x4003B01C) - Data: 00 00 00 00  returns 0x04 (0001ms, 0767ms total)
T3EB4 004:674 JLINK_ReadMemEx(0x4003B020, 0x0004 Bytes, ..., Flags = 0x02000004) -- CPU_ReadMem(4 bytes @ 0x4003B020) - Data: 00 00 00 00  returns 0x04 (0001ms, 0768ms total)
T3EB4 004:675 JLINK_ReadMemEx(0x4003B024, 0x0004 Bytes, ..., Flags = 0x02000004) -- CPU_ReadMem(4 bytes @ 0x4003B024) - Data: 00 00 00 00  returns 0x04 (0001ms, 0769ms total)
T3EB4 004:676 JLINK_ReadMemEx(0x4003B028, 0x0004 Bytes, ..., Flags = 0x02000004) -- CPU_ReadMem(4 bytes @ 0x4003B028) - Data: FF FF 00 00  returns 0x04 (0001ms, 0770ms total)
T3EB4 004:677 JLINK_ReadMemEx(0x4003B02C, 0x0004 Bytes, ..., Flags = 0x02000004) -- CPU_ReadMem(4 bytes @ 0x4003B02C) - Data: 8C 82 00 00  returns 0x04 (0001ms, 0771ms total)
T3EB4 004:678 JLINK_ReadMemEx(0x4003B030, 0x0004 Bytes, ..., Flags = 0x02000004) -- CPU_ReadMem(4 bytes @ 0x4003B030) - Data: 87 82 00 00  returns 0x04 (0001ms, 0772ms total)
T3EB4 004:679 JLINK_ReadMemEx(0x4003B034, 0x0004 Bytes, ..., Flags = 0x02000004) -- CPU_ReadMem(4 bytes @ 0x4003B034) - Data: 0C 00 00 00  returns 0x04 (0001ms, 0773ms total)
T3EB4 004:680 JLINK_ReadMemEx(0x4003B038, 0x0004 Bytes, ..., Flags = 0x02000004) -- CPU_ReadMem(4 bytes @ 0x4003B038) - Data: 2B 00 00 00  returns 0x04 (0001ms, 0774ms total)
T3EB4 004:681 JLINK_ReadMemEx(0x4003B03C, 0x0004 Bytes, ..., Flags = 0x02000004) -- CPU_ReadMem(4 bytes @ 0x4003B03C) - Data: 83 02 00 00  returns 0x04 (0001ms, 0775ms total)
T3EB4 004:682 JLINK_ReadMemEx(0x4003B040, 0x0004 Bytes, ..., Flags = 0x02000004) -- CPU_ReadMem(4 bytes @ 0x4003B040) - Data: 48 01 00 00  returns 0x04 (0001ms, 0776ms total)
T3EB4 004:683 JLINK_ReadMemEx(0x4003B044, 0x0004 Bytes, ..., Flags = 0x02000004) -- CPU_ReadMem(4 bytes @ 0x4003B044) - Data: A6 00 00 00  returns 0x04 (0001ms, 0777ms total)
T3EB4 004:684 JLINK_ReadMemEx(0x4003B048, 0x0004 Bytes, ..., Flags = 0x02000004) -- CPU_ReadMem(4 bytes @ 0x4003B048) - Data: 52 00 00 00  returns 0x04 (0001ms, 0778ms total)
T3EB4 004:685 JLINK_ReadMemEx(0x4003B04C, 0x0004 Bytes, ..., Flags = 0x02000004) -- CPU_ReadMem(4 bytes @ 0x4003B04C) - Data: 2A 00 00 00  returns 0x04 (0001ms, 0779ms total)
T3EB4 004:686 JLINK_ReadMemEx(0x4003B04C, 0x0004 Bytes, ..., Flags = 0x02000004) -- CPU_ReadMem(4 bytes @ 0x4003B04C) - Data: 2A 00 00 00  returns 0x04 (0001ms, 0780ms total)
T3EB4 004:687 JLINK_ReadMemEx(0x4003B054, 0x0018 Bytes, ..., Flags = 0x02000004) -- CPU_ReadMem(24 bytes @ 0x4003B054) - Data: 0B 00 00 00 29 00 00 00 80 02 00 00 46 01 00 00 ...  returns 0x18 (0001ms, 0781ms total)
T3EB4 004:688 JLINK_ReadMemEx(0x4003B054, 0x0004 Bytes, ..., Flags = 0x02000004) -- CPU_ReadMem(4 bytes @ 0x4003B054) - Data: 0B 00 00 00  returns 0x04 (0001ms, 0782ms total)
T3EB4 004:689 JLINK_ReadMemEx(0x4003B058, 0x0004 Bytes, ..., Flags = 0x02000004) -- CPU_ReadMem(4 bytes @ 0x4003B058) - Data: 29 00 00 00  returns 0x04 (0001ms, 0783ms total)
T3EB4 004:690 JLINK_ReadMemEx(0x4003B05C, 0x0004 Bytes, ..., Flags = 0x02000004) -- CPU_ReadMem(4 bytes @ 0x4003B05C) - Data: 80 02 00 00  returns 0x04 (0001ms, 0784ms total)
T3EB4 004:691 JLINK_ReadMemEx(0x4003B060, 0x0004 Bytes, ..., Flags = 0x02000004) -- CPU_ReadMem(4 bytes @ 0x4003B060) - Data: 46 01 00 00  returns 0x04 (0001ms, 0785ms total)
T3EB4 004:692 JLINK_ReadMemEx(0x4003B064, 0x0004 Bytes, ..., Flags = 0x02000004) -- CPU_ReadMem(4 bytes @ 0x4003B064) - Data: A3 00 00 00  returns 0x04 (0001ms, 0786ms total)
T3EB4 004:693 JLINK_ReadMemEx(0x4003B068, 0x0004 Bytes, ..., Flags = 0x02000004) -- CPU_ReadMem(4 bytes @ 0x4003B068) - Data: 53 00 00 00  returns 0x04 (0001ms, 0787ms total)
T3EB4 004:694 JLINK_ReadMemEx(0x4003B06C, 0x0004 Bytes, ..., Flags = 0x02000004) -- CPU_ReadMem(4 bytes @ 0x4003B06C) - Data: 29 00 00 00  returns 0x04 (0001ms, 0788ms total)
T3EB4 004:695 JLINK_ReadMemEx(0x4003B06C, 0x0004 Bytes, ..., Flags = 0x02000004) -- CPU_ReadMem(4 bytes @ 0x4003B06C) - Data: 29 00 00 00  returns 0x04 (0001ms, 0789ms total)
T20AC 004:853 JLINK_IsHalted()  returns FALSE (0001ms, 0790ms total)
T20AC 004:955 JLINK_IsHalted()  returns FALSE (0001ms, 0790ms total)
T20AC 005:057 JLINK_IsHalted()  returns FALSE (0001ms, 0790ms total)
T20AC 005:159 JLINK_IsHalted()  returns FALSE (0001ms, 0790ms total)
T20AC 005:261 JLINK_ReadMemU32(0xE0001004, 0x0001 Items, ...) - Data: CA FD A0 03  returns 0x01 (0000ms, 0789ms total)
T3EB4 005:261 JLINK_ReadMemEx(0x1FFF0004, 0x0004 Bytes, ..., Flags = 0x02000000) -- CPU_ReadMem(4 bytes @ 0x1FFF0004) - Data: 01 00 00 00  returns 0x04 (0001ms, 0790ms total)
T3EB4 005:262 JLINK_ReadMemEx(0x1FFF0018, 0x0004 Bytes, ..., Flags = 0x02000000) -- CPU_ReadMem(4 bytes @ 0x1FFF0018) - Data: 00 00 C8 41  returns 0x04 (0001ms, 0791ms total)
T3EB4 005:264 JLINK_ReadMemEx(0x1FFF0014, 0x0004 Bytes, ..., Flags = 0x02000000) -- CPU_ReadMem(4 bytes @ 0x1FFF0014) - Data: 12 41 8F 3F  returns 0x04 (0001ms, 0792ms total)
T3EB4 005:266 JLINK_ReadMemEx(0x1FFF0002, 0x0002 Bytes, ..., Flags = 0x02000000) -- CPU_ReadMem(2 bytes @ 0x1FFF0002) - Data: 9C 04  returns 0x02 (0001ms, 0793ms total)
T3EB4 005:274 JLINK_ReadMemEx(0x4003B000, 0x004C Bytes, ..., Flags = 0x02000004) -- CPU_ReadMem(76 bytes @ 0x4003B000) - Data: 1F 00 00 00 1F 00 00 00 44 00 00 00 03 00 00 00 ...  returns 0x4C (0002ms, 0795ms total)
T3EB4 005:276 JLINK_ReadMemEx(0x4003B000, 0x0004 Bytes, ..., Flags = 0x02000004) -- CPU_ReadMem(4 bytes @ 0x4003B000) - Data: 1F 00 00 00  returns 0x04 (0001ms, 0796ms total)
